!freq-unit  param-type  data-format  keyword  impedance-ohms
# GHz           Y          RI           R         1
!-----------------------------------------------------------------------------
1.0000000000000e+000	1.3866987122081e-003	-8.3895391816718e-003	
1.0100000000000e+000	1.3920657292416e-003	-8.2742308997992e-003	
1.0200000000000e+000	1.3975099631165e-003	-8.1608421314225e-003	
1.0300000000000e+000	1.4030318426444e-003	-8.0493164263362e-003	
1.0400000000000e+000	1.4086318115388e-003	-7.9395995049622e-003	
1.0500000000000e+000	1.4143103281640e-003	-7.8316391552604e-003	
1.0600000000000e+000	1.4200678653082e-003	-7.7253851355052e-003	
1.0700000000000e+000	1.4259049099743e-003	-7.6207890824905e-003	
1.0800000000000e+000	1.4318219631919e-003	-7.5178044248658e-003	
1.0900000000000e+000	1.4378195398458e-003	-7.4163863012252e-003	
1.1000000000000e+000	1.4438981685212e-003	-7.3164914827030e-003	
1.1100000000000e+000	1.4500583913646e-003	-7.2180782997233e-003	
1.1200000000000e+000	1.4563007639589e-003	-7.1211065727150e-003	
1.1300000000000e+000	1.4626258552130e-003	-7.0255375464911e-003	
1.1400000000000e+000	1.4690342472628e-003	-6.9313338280992e-003	
1.1500000000000e+000	1.4755265353856e-003	-6.8384593279186e-003	
1.1600000000000e+000	1.4821033279251e-003	-6.7468792038164e-003	
1.1700000000000e+000	1.4887652462274e-003	-6.6565598081756e-003	
1.1800000000000e+000	1.4955129245863e-003	-6.5674686376171e-003	
1.1900000000000e+000	1.5023470101990e-003	-6.4795742852822e-003	
1.2000000000000e+000	1.5092681631305e-003	-6.3928463954902e-003	
1.2100000000000e+000	1.5162770562856e-003	-6.3072556206755e-003	
1.2200000000000e+000	1.5233743753900e-003	-6.2227735804283e-003	
1.2300000000000e+000	1.5305608189780e-003	-6.1393728225679e-003	
1.2400000000000e+000	1.5378370983881e-003	-6.0570267860892e-003	
1.2500000000000e+000	1.5452039377640e-003	-5.9757097659095e-003	
1.2600000000000e+000	1.5526620740636e-003	-5.8953968793038e-003	
1.2700000000000e+000	1.5602122570730e-003	-5.8160640339321e-003	
1.2800000000000e+000	1.5678552494259e-003	-5.7376878973810e-003	
1.2900000000000e+000	1.5755918266292e-003	-5.6602458681273e-003	
1.3000000000000e+000	1.5834227770936e-003	-5.5837160478655e-003	
1.3100000000000e+000	1.5913489021675e-003	-5.5080772150973e-003	
1.3200000000000e+000	1.5993710161785e-003	-5.4333087999510e-003	
1.3300000000000e+000	1.6074899464756e-003	-5.3593908601365e-003	
1.3400000000000e+000	1.6157065334782e-003	-5.2863040579955e-003	
1.3500000000000e+000	1.6240216307281e-003	-5.2140296385837e-003	
1.3600000000000e+000	1.6324361049445e-003	-5.1425494087333e-003	
1.3700000000000e+000	1.6409508360832e-003	-5.0718457170448e-003	
1.3800000000000e+000	1.6495667173991e-003	-5.0019014347633e-003	
1.3900000000000e+000	1.6582846555108e-003	-4.9326999374940e-003	
1.4000000000000e+000	1.6671055704696e-003	-4.8642250877143e-003	
1.4100000000000e+000	1.6760303958293e-003	-4.7964612180497e-003	
1.4200000000000e+000	1.6850600787206e-003	-4.7293931152647e-003	
1.4300000000000e+000	1.6941955799257e-003	-4.6630060049430e-003	
1.4400000000000e+000	1.7034378739571e-003	-4.5972855368240e-003	
1.4500000000000e+000	1.7127879491367e-003	-4.5322177707599e-003	
1.4600000000000e+000	1.7222468076782e-003	-4.4677891632640e-003	
1.4700000000000e+000	1.7318154657698e-003	-4.4039865546275e-003	
1.4800000000000e+000	1.7414949536598e-003	-4.3407971565752e-003	
1.4900000000000e+000	1.7512863157428e-003	-4.2782085404344e-003	
1.5000000000000e+000	1.7611906106470e-003	-4.2162086257932e-003	
1.5100000000000e+000	1.7712089113234e-003	-4.1547856696306e-003	
1.5200000000000e+000	1.7813423051348e-003	-4.0939282558913e-003	
1.5300000000000e+000	1.7915918939467e-003	-4.0336252854881e-003	
1.5400000000000e+000	1.8019587942185e-003	-3.9738659667142e-003	
1.5500000000000e+000	1.8124441370942e-003	-3.9146398060435e-003	
1.5600000000000e+000	1.8230490684947e-003	-3.8559365993081e-003	
1.5700000000000e+000	1.8337747492100e-003	-3.7977464232286e-003	
1.5800000000000e+000	1.8446223549906e-003	-3.7400596272886e-003	
1.5900000000000e+000	1.8555930766393e-003	-3.6828668259374e-003	
1.6000000000000e+000	1.8666881201029e-003	-3.6261588911066e-003	
1.6100000000000e+000	1.8779087065632e-003	-3.5699269450228e-003	
1.6200000000000e+000	1.8892560725262e-003	-3.5141623533155e-003	
1.6300000000000e+000	1.9007314699126e-003	-3.4588567183954e-003	
1.6400000000000e+000	1.9123361661451e-003	-3.4040018731003e-003	
1.6500000000000e+000	1.9240714442359e-003	-3.3495898745970e-003	
1.6600000000000e+000	1.9359386028717e-003	-3.2956129985225e-003	
1.6700000000000e+000	1.9479389564978e-003	-3.2420637333662e-003	
1.6800000000000e+000	1.9600738354005e-003	-3.1889347750724e-003	
1.6900000000000e+000	1.9723445857857e-003	-3.1362190218616e-003	
1.7000000000000e+000	1.9847525698577e-003	-3.0839095692615e-003	
1.7100000000000e+000	1.9972991658938e-003	-3.0319997053363e-003	
1.7200000000000e+000	2.0099857683161e-003	-2.9804829061098e-003	
1.7300000000000e+000	2.0228137877615e-003	-2.9293528311749e-003	
1.7400000000000e+000	2.0357846511471e-003	-2.8786033194822e-003	
1.7500000000000e+000	2.0488998017324e-003	-2.8282283852995e-003	
1.7600000000000e+000	2.0621606991788e-003	-2.7782222143405e-003	
1.7700000000000e+000	2.0755688196030e-003	-2.7285791600512e-003	
1.7800000000000e+000	2.0891256556279e-003	-2.6792937400525e-003	
1.7900000000000e+000	2.1028327164276e-003	-2.6303606327327e-003	
1.8000000000000e+000	2.1166915277681e-003	-2.5817746739832e-003	
1.8100000000000e+000	2.1307036320420e-003	-2.5335308540751e-003	
1.8200000000000e+000	2.1448705882982e-003	-2.4856243146693e-003	
1.8300000000000e+000	2.1591939722656e-003	-2.4380503459576e-003	
1.8400000000000e+000	2.1736753763690e-003	-2.3908043839315e-003	
1.8500000000000e+000	2.1883164097408e-003	-2.3438820077700e-003	
1.8600000000000e+000	2.2031186982231e-003	-2.2972789373493e-003	
1.8700000000000e+000	2.2180838843636e-003	-2.2509910308643e-003	
1.8800000000000e+000	2.2332136274030e-003	-2.2050142825641e-003	
1.8900000000000e+000	2.2485096032547e-003	-2.1593448205922e-003	
1.9000000000000e+000	2.2639735044741e-003	-2.1139789049344e-003	
1.9100000000000e+000	2.2796070402208e-003	-2.0689129254658e-003	
1.9200000000000e+000	2.2954119362087e-003	-2.0241434000988e-003	
1.9300000000000e+000	2.3113899346475e-003	-1.9796669730250e-003	
1.9400000000000e+000	2.3275427941724e-003	-1.9354804130519e-003	
1.9500000000000e+000	2.3438722897626e-003	-1.8915806120290e-003	
1.9600000000000e+000	2.3603802126482e-003	-1.8479645833639e-003	
1.9700000000000e+000	2.3770683702044e-003	-1.8046294606222e-003	
1.9800000000000e+000	2.3939385858321e-003	-1.7615724962133e-003	
1.9900000000000e+000	2.4109926988259e-003	-1.7187910601557e-003	
2.0000000000000e+000	2.4282325642255e-003	-1.6762826389247e-003	
2.0100000000000e+000	2.4456600526553e-003	-1.6340448343738e-003	
2.0200000000000e+000	2.4632770501452e-003	-1.5920753627355e-003	
2.0300000000000e+000	2.4810854579363e-003	-1.5503720536942e-003	
2.0400000000000e+000	2.4990871922698e-003	-1.5089328495314e-003	
2.0500000000000e+000	2.5172841841564e-003	-1.4677558043411e-003	
2.0600000000000e+000	2.5356783791288e-003	-1.4268390833161e-003	
2.0700000000000e+000	2.5542717369730e-003	-1.3861809620981e-003	
2.0800000000000e+000	2.5730662314399e-003	-1.3457798261981e-003	
2.0900000000000e+000	2.5920638499357e-003	-1.3056341704768e-003	
2.1000000000000e+000	2.6112665931896e-003	-1.2657425986915e-003	
2.1100000000000e+000	2.6306764748985e-003	-1.2261038231026e-003	
2.1200000000000e+000	2.6502955213477e-003	-1.1867166641418e-003	
2.1300000000000e+000	2.6701257710066e-003	-1.1475800501383e-003	
2.1400000000000e+000	2.6901692740973e-003	-1.1086930171037e-003	
2.1500000000000e+000	2.7104280921374e-003	-1.0700547085734e-003	
2.1600000000000e+000	2.7309042974533e-003	-1.0316643755027e-003	
2.1700000000000e+000	2.7515999726645e-003	-9.9352137621890e-004	
2.1800000000000e+000	2.7725172101370e-003	-9.5562517642434e-004	
2.1900000000000e+000	2.7936581114055e-003	-9.1797534925351e-004	
2.2000000000000e+000	2.8150247865619e-003	-8.8057157537984e-004	
2.2100000000000e+000	2.8366193536094e-003	-8.4341364317254e-004	
2.2200000000000e+000	2.8584439377814e-003	-8.0650144890262e-004	
2.2300000000000e+000	2.8805006708231e-003	-7.6983499699571e-004	
2.2400000000000e+000	2.9027916902349e-003	-7.3341440033221e-004	
2.2500000000000e+000	2.9253191384752e-003	-6.9723988059212e-004	
2.2600000000000e+000	2.9480851621233e-003	-6.6131176864448e-004	
2.2700000000000e+000	2.9710919109980e-003	-6.2563050497994e-004	
2.2800000000000e+000	2.9943415372332e-003	-5.9019664018506e-004	
2.2900000000000e+000	3.0178361943058e-003	-5.5501083545791e-004	
2.3000000000000e+000	3.0415780360184e-003	-5.2007386316268e-004	
2.3100000000000e+000	3.0655692154305e-003	-4.8538660742281e-004	
2.3200000000000e+000	3.0898118837396e-003	-4.5095006475184e-004	
2.3300000000000e+000	3.1143081891105e-003	-4.1676534471940e-004	
2.3400000000000e+000	3.1390602754487e-003	-3.8283367065149e-004	
2.3500000000000e+000	3.1640702811176e-003	-3.4915638036558e-004	
2.3600000000000e+000	3.1893403375988e-003	-3.1573492693474e-004	
2.3700000000000e+000	3.2148725680906e-003	-2.8257087948462e-004	
2.3800000000000e+000	3.2406690860458e-003	-2.4966592401713e-004	
2.3900000000000e+000	3.2667319936444e-003	-2.1702186426255e-004	
2.4000000000000e+000	3.2930633802006e-003	-1.8464062255648e-004	
2.4100000000000e+000	3.3196653205024e-003	-1.5252424074028e-004	
2.4200000000000e+000	3.3465398730793e-003	-1.2067488108401e-004	
2.4300000000000e+000	3.3736890783992e-003	-8.9094827228778e-005	
2.4400000000000e+000	3.4011149569899e-003	-5.7786485147440e-005	
2.4500000000000e+000	3.4288195074838e-003	-2.6752384121171e-005	
2.4600000000000e+000	3.4568047045846e-003	4.0048222706701e-006	
2.4700000000000e+000	3.4850724969515e-003	3.4482355148195e-005	
2.4800000000000e+000	3.5136248050008e-003	6.4677309320768e-005	
2.4900000000000e+000	3.5424635186211e-003	9.4586652269258e-005	
2.5000000000000e+000	3.5715904948016e-003	1.2420722312469e-004	
2.5100000000000e+000	3.6010075551680e-003	1.5353573164579e-004	
2.5200000000000e+000	3.6307164834283e-003	1.8256875719809e-004	
2.5300000000000e+000	3.6607190227208e-003	2.1130274773729e-004	
2.5400000000000e+000	3.6910168728665e-003	2.3973401880114e-004	
2.5500000000000e+000	3.7216116875219e-003	2.6785875251241e-004	
2.5600000000000e+000	3.7525050712279e-003	2.9567299659520e-004	
2.5700000000000e+000	3.7836985763568e-003	3.2317266341181e-004	
2.5800000000000e+000	3.8151936999508e-003	3.5035352901926e-004	
2.5900000000000e+000	3.8469918804519e-003	3.7721123225316e-004	
2.6000000000000e+000	3.8790944943218e-003	4.0374127384193e-004	
2.6100000000000e+000	3.9115028525471e-003	4.2993901555417e-004	
2.6200000000000e+000	3.9442181970302e-003	4.5579967938676e-004	
2.6300000000000e+000	3.9772416968614e-003	4.8131834679555e-004	
2.6400000000000e+000	4.0105744444729e-003	5.0648995797476e-004	
2.6500000000000e+000	4.0442174516706e-003	5.3130931119152e-004	
2.6600000000000e+000	4.0781716455424e-003	5.5577106217791e-004	
2.6700000000000e+000	4.1124378642425e-003	5.7986972358881e-004	
2.6800000000000e+000	4.1470168526482e-003	6.0359966453073e-004	
2.6900000000000e+000	4.1819092578888e-003	6.2695511016626e-004	
2.7000000000000e+000	4.2171156247456e-003	6.4993014140253e-004	
2.7100000000000e+000	4.2526363909206e-003	6.7251869466829e-004	
2.7200000000000e+000	4.2884718821740e-003	6.9471456178830e-004	
2.7300000000000e+000	4.3246223073293e-003	7.1651138996018e-004	
2.7400000000000e+000	4.3610877531444e-003	7.3790268184200e-004	
2.7500000000000e+000	4.3978681790508e-003	7.5888179575882e-004	
2.7600000000000e+000	4.4349634117573e-003	7.7944194603338e-004	
2.7700000000000e+000	4.4723731397216e-003	7.9957620345315e-004	
2.7800000000000e+000	4.5100969074871e-003	8.1927749587711e-004	
2.7900000000000e+000	4.5481341098885e-003	8.3853860899527e-004	
2.8000000000000e+000	4.5864839861249e-003	8.5735218724651e-004	
2.8100000000000e+000	4.6251456137023e-003	8.7571073490609e-004	
2.8200000000000e+000	4.6641179022482e-003	8.9360661734981e-004	
2.8300000000000e+000	4.7033995871988e-003	9.1103206250711e-004	
2.8400000000000e+000	4.7429892233625e-003	9.2797916251024e-004	
2.8500000000000e+000	4.7828851783611e-003	9.4443987555123e-004	
2.8600000000000e+000	4.8230856259548e-003	9.6040602795624e-004	
2.8700000000000e+000	4.8635885392510e-003	9.7586931648767e-004	
2.8800000000000e+000	4.9043916838050e-003	9.9082131088475e-004	
2.8900000000000e+000	4.9454926106149e-003	1.0052534566537e-003	
2.9000000000000e+000	4.9868886490173e-003	1.0191570781178e-003	
2.9100000000000e+000	5.0285768994895e-003	1.0325233817382e-003	
2.9200000000000e+000	5.0705542263662e-003	1.0453434597193e-003	
2.9300000000000e+000	5.1128172504747e-003	1.0576082939053e-003	
2.9400000000000e+000	5.1553623417011e-003	1.0693087599841e-003	
2.9500000000000e+000	5.1981856114925e-003	1.0804356320066e-003	
2.9600000000000e+000	5.2412829053068e-003	1.0909795872351e-003	
2.9700000000000e+000	5.2846497950200e-003	1.1009312113306e-003	
2.9800000000000e+000	5.3282815713007e-003	1.1102810038913e-003	
2.9900000000000e+000	5.3721732359656e-003	1.1190193843530e-003	
3.0000000000000e+000	5.4163194943288e-003	1.1271366982641e-003	
3.0100000000000e+000	5.4607147475551e-003	1.1346232239434e-003	
3.0200000000000e+000	5.5053530850368e-003	1.1414691795345e-003	
3.0300000000000e+000	5.5502282768055e-003	1.1476647304646e-003	
3.0400000000000e+000	5.5953337659970e-003	1.1531999973202e-003	
3.0500000000000e+000	5.6406626613866e-003	1.1580650641477e-003	
3.0600000000000e+000	5.6862077300122e-003	1.1622499871889e-003	
3.0700000000000e+000	5.7319613899059e-003	1.1657448040610e-003	
3.0800000000000e+000	5.7779157029524e-003	1.1685395433875e-003	
3.0900000000000e+000	5.8240623678976e-003	1.1706242348889e-003	
3.1000000000000e+000	5.8703927135282e-003	1.1719889199406e-003	
3.1100000000000e+000	5.9168976920455e-003	1.1726236626015e-003	
3.1200000000000e+000	5.9635678726599e-003	1.1725185611226e-003	
3.1300000000000e+000	6.0103934354273e-003	1.1716637599347e-003	
3.1400000000000e+000	6.0573641653581e-003	1.1700494621239e-003	
3.1500000000000e+000	6.1044694468219e-003	1.1676659423914e-003	
3.1600000000000e+000	6.1516982582803e-003	1.1645035605035e-003	
3.1700000000000e+000	6.1990391673716e-003	1.1605527752279e-003	
3.1800000000000e+000	6.2464803263827e-003	1.1558041587553e-003	
3.1900000000000e+000	6.2940094681339e-003	1.1502484116038e-003	
3.2000000000000e+000	6.3416139023116e-003	1.1438763780001e-003	
3.2100000000000e+000	6.3892805122798e-003	1.1366790617314e-003	
3.2200000000000e+000	6.4369957524010e-003	1.1286476424592e-003	
3.2300000000000e+000	6.4847456459034e-003	1.1197734924848e-003	
3.2400000000000e+000	6.5325157833252e-003	1.1100481939550e-003	
3.2500000000000e+000	6.5802913215715e-003	1.0994635564921e-003	
3.2600000000000e+000	6.6280569836164e-003	1.0880116352336e-003	
3.2700000000000e+000	6.6757970588873e-003	1.0756847492616e-003	
3.2800000000000e+000	6.7234954043619e-003	1.0624755004013e-003	
3.2900000000000e+000	6.7711354464173e-003	1.0483767923662e-003	
3.3000000000000e+000	6.8187001834591e-003	1.0333818502230e-003	
3.3100000000000e+000	6.8661721893706e-003	1.0174842401481e-003	
3.3200000000000e+000	6.9135336178073e-003	1.0006778894462e-003	
3.3300000000000e+000	6.9607662073783e-003	9.8295710679646e-004	
3.3400000000000e+000	7.0078512877365e-003	9.6431660269117e-004	
3.3500000000000e+000	7.0547697866146e-003	9.4475151002660e-004	
3.3600000000000e+000	7.1015022378321e-003	9.2425740480722e-004	
3.3700000000000e+000	7.1480287903021e-003	9.0283032691825e-004	
3.3800000000000e+000	7.1943292180631e-003	8.8046680091933e-004	
3.3900000000000e+000	7.2403829313599e-003	8.5716385681205e-004	
3.4000000000000e+000	7.2861689887942e-003	8.3291905072791e-004	
3.4100000000000e+000	7.3316661105651e-003	8.0773048548358e-004	
3.4200000000000e+000	7.3768526928161e-003	7.8159683094785e-004	
3.4300000000000e+000	7.4217068231009e-003	7.5451734415900e-004	
3.4400000000000e+000	7.4662062969812e-003	7.2649188913461e-004	
3.4500000000000e+000	7.5103286357623e-003	6.9752095630882e-004	
3.4600000000000e+000	7.5540511053703e-003	6.6760568153282e-004	
3.4700000000000e+000	7.5973507363736e-003	6.3674786457276e-004	
3.4800000000000e+000	7.6402043451425e-003	6.0494998703539e-004	
3.4900000000000e+000	7.6825885561411e-003	5.7221522965398e-004	
3.5000000000000e+000	7.7244798253384e-003	5.3854748886305e-004	
3.5100000000000e+000	7.7658544647253e-003	5.0395139259100e-004	
3.5200000000000e+000	7.8066886679120e-003	4.6843231519901e-004	
3.5300000000000e+000	7.8469585367855e-003	4.3199639149465e-004	
3.5400000000000e+000	7.8866401091932e-003	3.9465052974838e-004	
3.5500000000000e+000	7.9257093876175e-003	3.5640242364049e-004	
3.5600000000000e+000	7.9641423688061e-003	3.1726056307076e-004	
3.5700000000000e+000	8.0019150743039e-003	2.7723424375730e-004	
3.5800000000000e+000	8.0390035818461e-003	2.3633357556166e-004	
3.5900000000000e+000	8.0753840575476e-003	1.9456948946930e-004	
3.6000000000000e+000	8.1110327888372e-003	1.5195374316569e-004	
3.6100000000000e+000	8.1459262180636e-003	1.0849892514464e-004	
3.6200000000000e+000	8.1800409767072e-003	6.4218457292132e-005	
3.6300000000000e+000	8.2133539201215e-003	1.9126595889595e-005	
3.6400000000000e+000	8.2458421627248e-003	-2.6761569010862e-005	
3.6500000000000e+000	8.2774831135562e-003	-7.3430115888600e-005	
3.6600000000000e+000	8.3082545121121e-003	-1.2086229577527e-004	
3.6700000000000e+000	8.3381344643653e-003	-1.6904053802903e-004	
3.6800000000000e+000	8.3671014788759e-003	-2.1794645789398e-004	
3.6900000000000e+000	8.3951345028923e-003	-2.6756086587424e-004	
3.7000000000000e+000	8.4222129583417e-003	-3.1786377893498e-004	
3.7100000000000e+000	8.4483167776052e-003	-3.6883443355040e-004	
3.7200000000000e+000	8.4734264389712e-003	-4.2045130060121e-004	
3.7300000000000e+000	8.4975230016601e-003	-4.7269210212341e-004	
3.7400000000000e+000	8.5205881403083e-003	-5.2553382990055e-004	
3.7500000000000e+000	8.5426041788054e-003	-5.7895276588365e-004	
3.7600000000000e+000	8.5635541233732e-003	-6.3292450442172e-004	
3.7700000000000e+000	8.5834216947742e-003	-6.8742397626632e-004	
3.7800000000000e+000	8.6021913595478e-003	-7.4242547432191e-004	
3.7900000000000e+000	8.6198483601593e-003	-7.9790268109180e-004	
3.8000000000000e+000	8.6363787439630e-003	-8.5382869777221e-004	
3.8100000000000e+000	8.6517693908742e-003	-9.1017607493319e-004	
3.8200000000000e+000	8.6660080396518e-003	-9.6691684472424e-004	
3.8300000000000e+000	8.6790833126959e-003	-1.0240225545273e-003	
3.8400000000000e+000	8.6909847392705e-003	-1.0814643019834e-003	
3.8500000000000e+000	8.7017027770631e-003	-1.1392127713017e-003	
3.8600000000000e+000	8.7112288320040e-003	-1.1972382707654e-003	
3.8700000000000e+000	8.7195552762651e-003	-1.2555107713291e-003	
3.8800000000000e+000	8.7266754643741e-003	-1.3139999462140e-003	
3.8900000000000e+000	8.7325837473811e-003	-1.3726752113863e-003	
3.9000000000000e+000	8.7372754850180e-003	-1.4315057668106e-003	
3.9100000000000e+000	8.7407470558114e-003	-1.4904606383603e-003	
3.9200000000000e+000	8.7429958650999e-003	-1.5495087202695e-003	
3.9300000000000e+000	8.7440203509297e-003	-1.6086188179996e-003	
3.9400000000000e+000	8.7438199878039e-003	-1.6677596914023e-003	
3.9500000000000e+000	8.7423952882644e-003	-1.7269000980494e-003	
3.9600000000000e+000	8.7397478023077e-003	-1.7860088366063e-003	
3.9700000000000e+000	8.7358801146275e-003	-1.8450547901194e-003	
3.9800000000000e+000	8.7307958396970e-003	-1.9040069690964e-003	
3.9900000000000e+000	8.7244996147103e-003	-1.9628345542483e-003	
4.0000000000000e+000	8.7169970904043e-003	-2.0215069387754e-003	
